[01/01/09 01:28:34.004] log started
[01/01/09 01:28:34.004] 	[ BusInterface ]
[01/01/09 01:28:34.004] 	cycle = 10
[01/01/09 01:28:34.004] 	delayWriteTime = 6
[01/01/09 01:28:34.005] 	href = cout_4012
[01/01/09 01:28:34.005] 	interface = ethernet
[01/01/09 01:28:34.005] 	localAddr = 10.0.0.1
[01/01/09 01:28:34.005] 	localPort = 4012
[01/01/09 01:28:34.005] 	log:path = 
[01/01/09 01:28:34.005] 	log:size = 
[01/01/09 01:28:34.005] 	log:type = info
[01/01/09 01:28:34.005] 	name = TCP/UDP/UnixSocket Network Bus
[01/01/09 01:28:34.005] 	protocol = udp
[01/01/09 01:28:34.005] 	remoteAddr = 10.0.0.2
[01/01/09 01:28:34.005] 	remotePort = 4012
[01/01/09 01:28:34.005] 	sym = bus_4012
[01/01/09 01:28:34.005] 	type = ethernet
[01/01/09 01:28:34.005] 	vendor = Spetstekhnika
[01/01/09 01:28:34.005] 	writeDelay = async
[01/01/09 01:28:34.005] tid = 2826
[01/01/09 01:28:34.025] udp connection started (cycle=10, receive size=10240)
[01/01/09 01:28:34.025] 	local  = 10.0.0.1:4012
[01/01/09 01:28:34.025] 	remote = 10.0.0.2:4012
[01/01/09 01:28:34.025] 	SO_RCVBUF = 63488
[01/01/09 01:28:34.026] 	SO_SNDBUF = 63488
[01/01/09 01:28:34.057] connection: receive timeout (1,1 10240/10240,5/5)
[01/01/09 01:28:34.057] send: [5b: 01 46 00 12 60]
[01/01/09 01:28:34.062] 	recv: [9b: 01 46 00 00 70 17 2A 8A 92]
[01/01/09 01:28:34.077] send: [8b: 01 05 01 14 00 00 8C 32]
[01/01/09 01:28:34.081] 	recv: [8b: 01 05 01 14 00 00 8C 32]
[01/01/09 01:28:34.095] send: [9b: 01 46 26 00 00 00 F0 0C E5]
[01/01/09 01:28:34.107] 	recv: [6b: 01 46 26 00 FA 6D]
[01/01/09 01:28:34.115] send: [6b: 01 46 2A 20 FE B5]
[01/01/09 01:28:34.123] 	recv: [6b: 01 46 2A 00 FF 6D]
[01/01/09 01:28:34.136] send: [8b: 01 05 01 0C FF 00 4D C5]
[01/01/09 01:28:34.169] 	recv: [8b: 01 05 01 0C FF 00 4D C5]
[01/01/09 01:28:34.184] send: [8b: 01 46 08 00 05 08 88 F3]
[01/01/09 01:28:34.191] 	recv: [6b: 01 46 08 00 E7 CD]
[01/01/09 01:28:34.205] send: [8b: 01 46 08 00 04 08 89 63]
[01/01/09 01:28:34.209] 	recv: [6b: 01 46 08 00 E7 CD]
[01/01/09 01:28:34.216] send: [8b: 01 46 08 00 06 08 88 03]
[01/01/09 01:28:34.222] 	recv: [6b: 01 46 08 00 E7 CD]
[01/01/09 01:28:34.234] send: [8b: 01 46 08 00 07 08 89 93]
[01/01/09 01:28:34.238] 	recv: [6b: 01 46 08 00 E7 CD]
[01/01/09 01:28:34.240] send: [8b: 01 04 00 05 00 01 21 CB]
[01/01/09 01:28:34.251] 	recv: [7b: 01 04 02 0E 77 FD 76]
[01/01/09 01:28:34.265] send: [8b: 01 04 00 04 00 01 70 0B]
[01/01/09 01:28:34.269] 	recv: [7b: 01 04 02 14 A9 76 4E]
[01/01/09 01:28:34.285] send: [8b: 01 04 00 06 00 01 D1 CB]
[01/01/09 01:28:34.296] 	recv: [7b: 01 04 02 00 02 38 F1]
[01/01/09 01:28:34.305] send: [8b: 01 04 00 07 00 01 80 0B]
[01/01/09 01:28:34.311] 	recv: [7b: 01 04 02 03 1C B8 09]
[01/01/09 01:28:34.313] send: [8b: 01 04 00 05 00 01 21 CB]
[01/01/09 01:28:34.317] 	recv: [7b: 01 04 02 0E 77 FD 76]
[01/01/09 01:28:34.335] send: [8b: 01 04 00 04 00 01 70 0B]
[01/01/09 01:28:34.340] 	recv: [7b: 01 04 02 14 AA 36 4F]
[01/01/09 01:28:34.354] send: [8b: 01 04 00 06 00 01 D1 CB]
[01/01/09 01:28:34.357] 	recv: [7b: 01 04 02 00 03 F9 31]
[01/01/09 01:28:34.373] send: [8b: 01 04 00 07 00 01 80 0B]
[01/01/09 01:28:34.387] 	recv: [7b: 01 04 02 03 1B F9 CB]
[01/01/09 01:28:34.395] send: [8b: 01 04 00 05 00 01 21 CB]
[01/01/09 01:28:34.400] 	recv: [7b: 01 04 02 0E 76 3C B6]
[01/01/09 01:28:34.413] send: [8b: 01 04 00 04 00 01 70 0B]
[01/01/09 01:28:34.418] 	recv: [7b: 01 04 02 14 AA 36 4F]
[01/01/09 01:28:34.437] send: [8b: 01 04 00 06 00 01 D1 CB]
[01/01/09 01:28:34.446] 	recv: [7b: 01 04 02 00 03 F9 31]
[01/01/09 01:28:34.454] send: [8b: 01 04 00 07 00 01 80 0B]
[01/01/09 01:28:34.461] 	recv: [7b: 01 04 02 03 1B F9 CB]
[01/01/09 01:28:34.462] send: [8b: 01 04 00 05 00 01 21 CB]
[01/01/09 01:28:34.467] 	recv: [7b: 01 04 02 0E 76 3C B6]
[01/01/09 01:28:34.473] send: [8b: 01 04 00 04 00 01 70 0B]
[01/01/09 01:28:34.478] 	recv: [7b: 01 04 02 14 AA 36 4F]
[01/01/09 01:28:34.494] send: [8b: 01 04 00 06 00 01 D1 CB]
[01/01/09 01:28:34.506] 	recv: [7b: 01 04 02 00 02 38 F1]
[01/01/09 01:28:34.513] send: [8b: 01 04 00 07 00 01 80 0B]
[01/01/09 01:28:34.521] 	recv: [7b: 01 04 02 03 1B F9 CB]
[01/01/09 01:28:34.523] send: [8b: 01 04 00 05 00 01 21 CB]
[01/01/09 01:28:34.527] 	recv: [7b: 01 04 02 0E 76 3C B6]
[01/01/09 01:28:34.533] send: [8b: 01 04 00 04 00 01 70 0B]
[01/01/09 01:28:34.537] 	recv: [7b: 01 04 02 14 A9 76 4E]
[01/01/09 01:28:34.544] send: [8b: 01 04 00 06 00 01 D1 CB]
[01/01/09 01:28:34.550] 	recv: [7b: 01 04 02 00 02 38 F1]
[01/01/09 01:28:34.565] send: [8b: 01 04 00 07 00 01 80 0B]
[01/01/09 01:28:34.569] 	recv: [7b: 01 04 02 03 1B F9 CB]
[01/01/09 01:28:34.571] send: [8b: 01 04 00 05 00 01 21 CB]
[01/01/09 01:28:34.581] 	recv: [7b: 01 04 02 0E 75 7C B7]
[01/01/09 01:28:34.595] send: [8b: 01 04 00 04 00 01 70 0B]
[01/01/09 01:28:34.600] 	recv: [7b: 01 04 02 14 AA 36 4F]
[01/01/09 01:28:34.615] send: [8b: 01 04 00 06 00 01 D1 CB]
[01/01/09 01:28:34.626] 	recv: [7b: 01 04 02 00 03 F9 31]
[01/01/09 01:28:34.633] send: [8b: 01 04 00 07 00 01 80 0B]
[01/01/09 01:28:34.641] 	recv: [7b: 01 04 02 03 1B F9 CB]
[01/01/09 01:28:34.643] send: [8b: 01 04 00 05 00 01 21 CB]
[01/01/09 01:28:34.646] 	recv: [7b: 01 04 02 0E 74 BD 77]
[01/01/09 01:28:34.654] send: [8b: 01 04 00 04 00 01 70 0B]
[01/01/09 01:28:34.658] 	recv: [7b: 01 04 02 14 A8 B7 8E]
[01/01/09 01:28:34.665] send: [8b: 01 04 00 06 00 01 D1 CB]
[01/01/09 01:28:34.670] 	recv: [7b: 01 04 02 00 03 F9 31]
[01/01/09 01:28:34.685] send: [8b: 01 04 00 07 00 01 80 0B]
[01/01/09 01:28:34.689] 	recv: [7b: 01 04 02 03 1B F9 CB]
[01/01/09 01:28:34.691] send: [8b: 01 04 00 05 00 01 21 CB]
[01/01/09 01:28:34.701] 	recv: [7b: 01 04 02 0E 77 FD 76]
[01/01/09 01:28:34.715] send: [8b: 01 04 00 04 00 01 70 0B]
[01/01/09 01:28:34.719] 	recv: [7b: 01 04 02 14 AB F7 8F]
[01/01/09 01:28:34.735] send: [8b: 01 04 00 06 00 01 D1 CB]
[01/01/09 01:28:34.745] 	recv: [7b: 01 04 02 00 03 F9 31]
[01/01/09 01:28:34.755] send: [8b: 01 04 00 07 00 01 80 0B]
[01/01/09 01:28:34.761] 	recv: [7b: 01 04 02 03 1B F9 CB]
[01/01/09 01:28:34.763] send: [8b: 01 04 00 05 00 01 21 CB]
[01/01/09 01:28:34.767] 	recv: [7b: 01 04 02 0E 77 FD 76]
[01/01/09 01:28:34.785] send: [8b: 01 04 00 04 00 01 70 0B]
[01/01/09 01:28:34.790] 	recv: [7b: 01 04 02 14 AB F7 8F]
[01/01/09 01:28:34.805] send: [8b: 01 04 00 06 00 01 D1 CB]
[01/01/09 01:28:34.810] 	recv: [7b: 01 04 02 00 03 F9 31]
[01/01/09 01:28:34.825] send: [8b: 01 04 00 07 00 01 80 0B]
[01/01/09 01:28:34.836] 	recv: [7b: 01 04 02 03 1C B8 09]
[01/01/09 01:28:34.844] send: [8b: 01 04 00 05 00 01 21 CB]
[01/01/09 01:28:34.851] 	recv: [7b: 01 04 02 0E 77 FD 76]
[01/01/09 01:28:34.863] send: [8b: 01 04 00 04 00 01 70 0B]
[01/01/09 01:28:34.867] 	recv: [7b: 01 04 02 14 AA 36 4F]
[01/01/09 01:28:34.875] send: [8b: 01 04 00 06 00 01 D1 CB]
[01/01/09 01:28:34.880] 	recv: [7b: 01 04 02 00 02 38 F1]
[01/01/09 01:28:34.895] send: [8b: 01 04 00 07 00 01 80 0B]
[01/01/09 01:28:34.900] 	recv: [7b: 01 04 02 03 1D 79 C9]
[01/01/09 01:28:34.901] send: [8b: 01 04 00 05 00 01 21 CB]
[01/01/09 01:28:34.910] 	recv: [7b: 01 04 02 0E 75 7C B7]
[01/01/09 01:28:34.923] send: [8b: 01 04 00 04 00 01 70 0B]
[01/01/09 01:28:34.927] 	recv: [7b: 01 04 02 14 A8 B7 8E]
[01/01/09 01:28:34.936] send: [8b: 01 04 00 06 00 01 D1 CB]
[01/01/09 01:28:34.941] 	recv: [7b: 01 04 02 00 04 B8 F3]
[01/01/09 01:28:34.955] send: [8b: 01 04 00 07 00 01 80 0B]
[01/01/09 01:28:34.959] 	recv: [7b: 01 04 02 03 1C B8 09]
[01/01/09 01:28:34.961] send: [8b: 01 04 00 05 00 01 21 CB]
[01/01/09 01:28:34.970] 	recv: [7b: 01 04 02 0E 78 BD 72]
[01/01/09 01:28:34.984] send: [8b: 01 04 00 04 00 01 70 0B]
[01/01/09 01:28:34.987] 	recv: [7b: 01 04 02 14 AA 36 4F]
[01/01/09 01:28:35.004] send: [8b: 01 04 00 06 00 01 D1 CB]
[01/01/09 01:28:35.017] 	recv: [7b: 01 04 02 00 03 F9 31]
[01/01/09 01:28:35.038] send: [8b: 01 04 00 07 00 01 80 0B]
[01/01/09 01:28:35.045] 	recv: [7b: 01 04 02 03 1C B8 09]
[01/01/09 01:28:35.054] send: [8b: 01 04 00 05 00 01 21 CB]
[01/01/09 01:28:35.061] 	recv: [7b: 01 04 02 0E 75 7C B7]
[01/01/09 01:28:35.077] send: [8b: 01 04 00 04 00 01 70 0B]
[01/01/09 01:28:35.081] 	recv: [7b: 01 04 02 14 AA 36 4F]
[01/01/09 01:28:35.095] send: [8b: 01 04 00 06 00 01 D1 CB]
[01/01/09 01:28:35.106] 	recv: [7b: 01 04 02 00 03 F9 31]
[01/01/09 01:28:35.115] send: [8b: 01 04 00 07 00 01 80 0B]
[01/01/09 01:28:35.121] 	recv: [7b: 01 04 02 03 1B F9 CB]
[01/01/09 01:28:35.124] send: [8b: 01 04 00 05 00 01 21 CB]
[01/01/09 01:28:35.135] 	recv: [7b: 01 04 02 0E 76 3C B6]
[01/01/09 01:28:35.143] send: [8b: 01 04 00 04 00 01 70 0B]
[01/01/09 01:28:35.150] 	recv: [7b: 01 04 02 14 AA 36 4F]
[01/01/09 01:28:35.164] send: [8b: 01 04 00 06 00 01 D1 CB]
[01/01/09 01:28:35.168] 	recv: [7b: 01 04 02 00 03 F9 31]
[01/01/09 01:28:35.183] send: [8b: 01 04 00 07 00 01 80 0B]
[01/01/09 01:28:35.187] 	recv: [7b: 01 04 02 03 1B F9 CB]
[01/01/09 01:28:35.196] send: [8b: 01 04 00 05 00 01 21 CB]
[01/01/09 01:28:35.201] 	recv: [7b: 01 04 02 0E 76 3C B6]
[01/01/09 01:28:35.217] send: [8b: 01 04 00 04 00 01 70 0B]
[01/01/09 01:28:35.226] 	recv: [7b: 01 04 02 14 AA 36 4F]
[01/01/09 01:28:35.234] send: [8b: 01 04 00 06 00 01 D1 CB]
[01/01/09 01:28:35.240] 	recv: [7b: 01 04 02 00 04 B8 F3]
[01/01/09 01:28:35.255] send: [8b: 01 04 00 07 00 01 80 0B]
[01/01/09 01:28:35.260] 	recv: [7b: 01 04 02 03 1B F9 CB]
[01/01/09 01:28:35.262] send: [8b: 01 04 00 05 00 01 21 CB]
[01/01/09 01:28:35.270] 	recv: [7b: 01 04 02 0E 77 FD 76]
[01/01/09 01:28:35.285] send: [8b: 01 04 00 04 00 01 70 0B]
[01/01/09 01:28:35.289] 	recv: [7b: 01 04 02 14 AA 36 4F]
[01/01/09 01:28:35.304] send: [8b: 01 04 00 06 00 01 D1 CB]
[01/01/09 01:28:35.315] 	recv: [7b: 01 04 02 00 02 38 F1]
[01/01/09 01:28:35.323] send: [8b: 01 04 00 07 00 01 80 0B]
[01/01/09 01:28:35.330] 	recv: [7b: 01 04 02 03 1A 38 0B]
[01/01/09 01:28:35.331] send: [8b: 01 04 00 05 00 01 21 CB]
[01/01/09 01:28:35.336] 	recv: [7b: 01 04 02 0E 77 FD 76]
[01/01/09 01:28:35.348] send: [8b: 01 04 00 04 00 01 70 0B]
[01/01/09 01:28:35.351] 	recv: [7b: 01 04 02 14 AA 36 4F]
[01/01/09 01:28:35.364] send: [8b: 01 04 00 06 00 01 D1 CB]
[01/01/09 01:28:35.367] 	recv: [7b: 01 04 02 00 04 B8 F3]
[01/01/09 01:28:35.383] send: [8b: 01 04 00 07 00 01 80 0B]
[01/01/09 01:28:35.390] 	recv: [7b: 01 04 02 03 1B F9 CB]
[01/01/09 01:28:35.391] send: [8b: 01 04 00 05 00 01 21 CB]
[01/01/09 01:28:35.394] 	recv: [7b: 01 04 02 0E 75 7C B7]
[01/01/09 01:28:35.404] send: [8b: 01 04 00 04 00 01 70 0B]
[01/01/09 01:28:35.407] 	recv: [7b: 01 04 02 14 AC B6 4D]
[01/01/09 01:28:35.428] send: [8b: 01 04 00 06 00 01 D1 CB]
[01/01/09 01:28:35.437] 	recv: [7b: 01 04 02 00 03 F9 31]
[01/01/09 01:28:35.444] send: [8b: 01 04 00 07 00 01 80 0B]
[01/01/09 01:28:35.450] 	recv: [7b: 01 04 02 03 1D 79 C9]
[01/01/09 01:28:35.452] send: [8b: 01 04 00 05 00 01 21 CB]
[01/01/09 01:28:35.456] 	recv: [7b: 01 04 02 0E 75 7C B7]
[01/01/09 01:28:35.464] send: [8b: 01 04 00 04 00 01 70 0B]
[01/01/09 01:28:35.467] 	recv: [7b: 01 04 02 14 AA 36 4F]
[01/01/09 01:28:35.487] send: [8b: 01 04 00 06 00 01 D1 CB]
[01/01/09 01:28:35.495] 	recv: [7b: 01 04 02 00 03 F9 31]
[01/01/09 01:28:35.505] send: [8b: 01 04 00 07 00 01 80 0B]
[01/01/09 01:28:35.510] 	recv: [7b: 01 04 02 03 1B F9 CB]
[01/01/09 01:28:35.512] send: [8b: 01 04 00 05 00 01 21 CB]
[01/01/09 01:28:35.517] 	recv: [7b: 01 04 02 0E 77 FD 76]
[01/01/09 01:28:35.535] send: [8b: 01 04 00 04 00 01 70 0B]
[01/01/09 01:28:35.540] 	recv: [7b: 01 04 02 14 AB F7 8F]
[01/01/09 01:28:35.553] send: [8b: 01 04 00 06 00 01 D1 CB]
[01/01/09 01:28:35.558] 	recv: [7b: 01 04 02 00 03 F9 31]
[01/01/09 01:28:35.574] send: [8b: 01 04 00 07 00 01 80 0B]
[01/01/09 01:28:35.586] 	recv: [7b: 01 04 02 03 1A 38 0B]
[01/01/09 01:28:35.595] send: [8b: 01 04 00 05 00 01 21 CB]
[01/01/09 01:28:35.601] 	recv: [7b: 01 04 02 0E 77 FD 76]
[01/01/09 01:28:35.615] send: [8b: 01 04 00 04 00 01 70 0B]
[01/01/09 01:28:35.620] 	recv: [7b: 01 04 02 14 AA 36 4F]
[01/01/09 01:28:35.635] send: [8b: 01 04 00 06 00 01 D1 CB]
[01/01/09 01:28:35.645] 	recv: [7b: 01 04 02 00 04 B8 F3]
[01/01/09 01:28:35.654] send: [8b: 01 04 00 07 00 01 80 0B]
[01/01/09 01:28:35.660] 	recv: [7b: 01 04 02 03 1B F9 CB]
[01/01/09 01:28:35.662] send: [8b: 01 04 00 05 00 01 21 CB]
[01/01/09 01:28:35.666] 	recv: [7b: 01 04 02 0E 76 3C B6]
[01/01/09 01:28:35.674] send: [8b: 01 04 00 04 00 01 70 0B]
[01/01/09 01:28:35.679] 	recv: [7b: 01 04 02 14 AA 36 4F]
[01/01/09 01:28:35.693] send: [8b: 01 04 00 06 00 01 D1 CB]
[01/01/09 01:28:35.706] 	recv: [7b: 01 04 02 00 03 F9 31]
[01/01/09 01:28:35.714] send: [8b: 01 04 00 07 00 01 80 0B]
[01/01/09 01:28:35.721] 	recv: [7b: 01 04 02 03 1B F9 CB]
[01/01/09 01:28:35.724] send: [8b: 01 04 00 05 00 01 21 CB]
[01/01/09 01:28:35.736] 	recv: [7b: 01 04 02 0E 76 3C B6]
[01/01/09 01:28:35.744] send: [8b: 01 04 00 04 00 01 70 0B]
[01/01/09 01:28:35.751] 	recv: [7b: 01 04 02 14 AA 36 4F]
[01/01/09 01:28:35.764] send: [8b: 01 04 00 06 00 01 D1 CB]
[01/01/09 01:28:35.768] 	recv: [7b: 01 04 02 00 02 38 F1]
[01/01/09 01:28:35.783] send: [8b: 01 04 00 07 00 01 80 0B]
[01/01/09 01:28:35.787] 	recv: [7b: 01 04 02 03 1B F9 CB]
[01/01/09 01:28:35.795] send: [8b: 01 04 00 05 00 01 21 CB]
[01/01/09 01:28:35.799] 	recv: [7b: 01 04 02 0E 77 FD 76]
[01/01/09 01:28:35.814] send: [8b: 01 04 00 04 00 01 70 0B]
[01/01/09 01:28:35.825] 	recv: [7b: 01 04 02 14 A8 B7 8E]
[01/01/09 01:28:35.834] send: [8b: 01 04 00 06 00 01 D1 CB]
[01/01/09 01:28:35.840] 	recv: [7b: 01 04 02 00 02 38 F1]
[01/01/09 01:28:35.855] send: [8b: 01 04 00 07 00 01 80 0B]
[01/01/09 01:28:35.859] 	recv: [7b: 01 04 02 03 1B F9 CB]
[01/01/09 01:28:35.861] send: [8b: 01 04 00 05 00 01 21 CB]
[01/01/09 01:28:35.871] 	recv: [7b: 01 04 02 0E 76 3C B6]
[01/01/09 01:28:35.884] send: [8b: 01 04 00 04 00 01 70 0B]
[01/01/09 01:28:35.888] 	recv: [7b: 01 04 02 14 A9 76 4E]
[01/01/09 01:28:35.904] send: [8b: 01 04 00 06 00 01 D1 CB]
[01/01/09 01:28:35.917] 	recv: [7b: 01 04 02 00 02 38 F1]
[01/01/09 01:28:35.924] send: [8b: 01 04 00 07 00 01 80 0B]
[01/01/09 01:28:35.930] 	recv: [7b: 01 04 02 03 1A 38 0B]
[01/01/09 01:28:35.932] send: [8b: 01 04 00 05 00 01 21 CB]
[01/01/09 01:28:35.936] 	recv: [7b: 01 04 02 0E 76 3C B6]
[01/01/09 01:28:35.944] send: [8b: 01 04 00 04 00 01 70 0B]
[01/01/09 01:28:35.948] 	recv: [7b: 01 04 02 14 A9 76 4E]
[01/01/09 01:28:35.964] send: [8b: 01 04 00 06 00 01 D1 CB]
[01/01/09 01:28:35.976] 	recv: [7b: 01 04 02 00 03 F9 31]
[01/01/09 01:28:35.984] send: [8b: 01 04 00 07 00 01 80 0B]
[01/01/09 01:28:35.990] 	recv: [7b: 01 04 02 03 1D 79 C9]
[01/01/09 01:28:35.992] send: [8b: 01 04 00 05 00 01 21 CB]
[01/01/09 01:28:35.996] 	recv: [7b: 01 04 02 0E 76 3C B6]
[01/01/09 01:28:36.005] send: [8b: 01 04 00 04 00 01 70 0B]
[01/01/09 01:28:36.009] 	recv: [7b: 01 04 02 14 AB F7 8F]
[01/01/09 01:28:36.025] send: [8b: 01 04 00 06 00 01 D1 CB]
[01/01/09 01:28:36.035] 	recv: [7b: 01 04 02 00 05 79 33]
[01/01/09 01:28:36.044] send: [8b: 01 04 00 07 00 01 80 0B]
[01/01/09 01:28:36.050] 	recv: [7b: 01 04 02 03 1B F9 CB]
[01/01/09 01:28:36.052] send: [8b: 01 04 00 05 00 01 21 CB]
[01/01/09 01:28:36.056] 	recv: [7b: 01 04 02 0E 77 FD 76]
[01/01/09 01:28:36.064] send: [8b: 01 04 00 04 00 01 70 0B]
[01/01/09 01:28:36.068] 	recv: [7b: 01 04 02 14 A8 B7 8E]
[01/01/09 01:28:36.075] send: [8b: 01 04 00 06 00 01 D1 CB]
[01/01/09 01:28:36.081] 	recv: [7b: 01 04 02 00 03 F9 31]
[01/01/09 01:28:36.094] send: [8b: 01 04 00 07 00 01 80 0B]
[01/01/09 01:28:36.098] 	recv: [7b: 01 04 02 03 1B F9 CB]
[01/01/09 01:28:36.105] send: [8b: 01 04 00 05 00 01 21 CB]
[01/01/09 01:28:36.111] 	recv: [7b: 01 04 02 0E 76 3C B6]
[01/01/09 01:28:36.125] send: [8b: 01 04 00 04 00 01 70 0B]
[01/01/09 01:28:36.129] 	recv: [7b: 01 04 02 14 A9 76 4E]
[01/01/09 01:28:36.144] send: [8b: 01 04 00 06 00 01 D1 CB]
[01/01/09 01:28:36.155] 	recv: [7b: 01 04 02 00 03 F9 31]
[01/01/09 01:28:36.165] send: [8b: 01 04 00 07 00 01 80 0B]
[01/01/09 01:28:36.170] 	recv: [7b: 01 04 02 03 1D 79 C9]
[01/01/09 01:28:36.172] send: [8b: 01 04 00 05 00 01 21 CB]
[01/01/09 01:28:36.176] 	recv: [7b: 01 04 02 0E 75 7C B7]
[01/01/09 01:28:36.184] send: [8b: 01 04 00 04 00 01 70 0B]
[01/01/09 01:28:36.189] 	recv: [7b: 01 04 02 14 AA 36 4F]
[01/01/09 01:28:36.205] send: [8b: 01 04 00 06 00 01 D1 CB]
[01/01/09 01:28:36.216] 	recv: [7b: 01 04 02 00 03 F9 31]
[01/01/09 01:28:36.223] send: [8b: 01 04 00 07 00 01 80 0B]
[01/01/09 01:28:36.231] 	recv: [7b: 01 04 02 03 1B F9 CB]
[01/01/09 01:28:36.231] send: [8b: 01 04 00 05 00 01 21 CB]
[01/01/09 01:28:36.235] 	recv: [7b: 01 04 02 0E 75 7C B7]
[01/01/09 01:28:36.245] send: [8b: 01 04 00 04 00 01 70 0B]
[01/01/09 01:28:36.249] 	recv: [7b: 01 04 02 14 AA 36 4F]
[01/01/09 01:28:36.263] send: [8b: 01 04 00 06 00 01 D1 CB]
[01/01/09 01:28:36.274] 	recv: [7b: 01 04 02 00 03 F9 31]
[01/01/09 01:28:36.284] send: [8b: 01 04 00 07 00 01 80 0B]
[01/01/09 01:28:36.291] 	recv: [7b: 01 04 02 03 1D 79 C9]
[01/01/09 01:28:36.292] send: [8b: 01 04 00 05 00 01 21 CB]
[01/01/09 01:28:36.296] 	recv: [7b: 01 04 02 0E 77 FD 76]
[01/01/09 01:28:36.305] send: [8b: 01 04 00 04 00 01 70 0B]
[01/01/09 01:28:36.309] 	recv: [7b: 01 04 02 14 A9 76 4E]
[01/01/09 01:28:36.325] send: [8b: 01 04 00 06 00 01 D1 CB]
[01/01/09 01:28:36.336] 	recv: [7b: 01 04 02 00 03 F9 31]
[01/01/09 01:28:36.343] send: [8b: 01 04 00 07 00 01 80 0B]
[01/01/09 01:28:36.350] 	recv: [7b: 01 04 02 03 1C B8 09]
[01/01/09 01:28:36.352] send: [8b: 01 04 00 05 00 01 21 CB]
[01/01/09 01:28:36.358] 	recv: [7b: 01 04 02 0E 76 3C B6]
[01/01/09 01:28:36.374] send: [8b: 01 04 00 04 00 01 70 0B]
[01/01/09 01:28:36.381] 	recv: [7b: 01 04 02 14 A9 76 4E]
[01/01/09 01:28:36.394] send: [8b: 01 04 00 06 00 01 D1 CB]
[01/01/09 01:28:36.399] 	recv: [7b: 01 04 02 00 03 F9 31]
[01/01/09 01:28:36.413] send: [8b: 01 04 00 07 00 01 80 0B]
[01/01/09 01:28:36.425] 	recv: [7b: 01 04 02 03 1B F9 CB]
[01/01/09 01:28:36.434] send: [8b: 01 04 00 05 00 01 21 CB]
[01/01/09 01:28:36.441] 	recv: [7b: 01 04 02 0E 76 3C B6]
[01/01/09 01:28:36.454] send: [8b: 01 04 00 04 00 01 70 0B]
[01/01/09 01:28:36.458] 	recv: [7b: 01 04 02 14 A9 76 4E]
[01/01/09 01:28:36.473] send: [8b: 01 04 00 06 00 01 D1 CB]
[01/01/09 01:28:36.477] 	recv: [7b: 01 04 02 00 02 38 F1]
[01/01/09 01:28:36.484] send: [8b: 01 04 00 07 00 01 80 0B]
[01/01/09 01:28:36.489] 	recv: [7b: 01 04 02 03 1C B8 09]
[01/01/09 01:28:36.491] send: [8b: 01 04 00 05 00 01 21 CB]
[01/01/09 01:28:36.500] 	recv: [7b: 01 04 02 0E 76 3C B6]
[01/01/09 01:28:36.515] send: [8b: 01 04 00 04 00 01 70 0B]
[01/01/09 01:28:36.519] 	recv: [7b: 01 04 02 14 A9 76 4E]
[01/01/09 01:28:36.534] send: [8b: 01 04 00 06 00 01 D1 CB]
[01/01/09 01:28:36.546] 	recv: [7b: 01 04 02 00 03 F9 31]
[01/01/09 01:28:36.554] send: [8b: 01 04 00 07 00 01 80 0B]
[01/01/09 01:28:36.561] 	recv: [7b: 01 04 02 03 1C B8 09]
[01/01/09 01:28:36.562] send: [8b: 01 04 00 05 00 01 21 CB]
[01/01/09 01:28:36.567] 	recv: [7b: 01 04 02 0E 77 FD 76]
[01/01/09 01:28:36.584] send: [8b: 01 04 00 04 00 01 70 0B]
[01/01/09 01:28:36.591] 	recv: [7b: 01 04 02 14 A9 76 4E]
[01/01/09 01:28:36.604] send: [8b: 01 04 00 06 00 01 D1 CB]
[01/01/09 01:28:36.609] 	recv: [7b: 01 04 02 00 03 F9 31]
[01/01/09 01:28:36.623] send: [8b: 01 04 00 07 00 01 80 0B]
[01/01/09 01:28:36.635] 	recv: [7b: 01 04 02 03 1A 38 0B]
[01/01/09 01:28:36.645] send: [8b: 01 04 00 05 00 01 21 CB]
[01/01/09 01:28:36.651] 	recv: [7b: 01 04 02 0E 76 3C B6]
[01/01/09 01:28:36.664] send: [8b: 01 04 00 04 00 01 70 0B]
[01/01/09 01:28:36.668] 	recv: [7b: 01 04 02 14 A9 76 4E]
[01/01/09 01:28:36.675] send: [8b: 01 04 00 06 00 01 D1 CB]
[01/01/09 01:28:36.680] 	recv: [7b: 01 04 02 00 03 F9 31]
[01/01/09 01:28:36.695] send: [8b: 01 04 00 07 00 01 80 0B]
[01/01/09 01:28:36.699] 	recv: [7b: 01 04 02 03 1C B8 09]
[01/01/09 01:28:36.700] send: [8b: 01 04 00 05 00 01 21 CB]
[01/01/09 01:28:36.711] 	recv: [7b: 01 04 02 0E 76 3C B6]
[01/01/09 01:28:36.725] send: [8b: 01 04 00 04 00 01 70 0B]
[01/01/09 01:28:36.729] 	recv: [7b: 01 04 02 14 AA 36 4F]
[01/01/09 01:28:36.744] send: [8b: 01 04 00 06 00 01 D1 CB]
[01/01/09 01:28:36.756] 	recv: [7b: 01 04 02 00 02 38 F1]
[01/01/09 01:28:36.764] send: [8b: 01 04 00 07 00 01 80 0B]
[01/01/09 01:28:36.771] 	recv: [7b: 01 04 02 03 1B F9 CB]
[01/01/09 01:28:36.773] send: [8b: 01 04 00 05 00 01 21 CB]
[01/01/09 01:28:36.776] 	recv: [7b: 01 04 02 0E 75 7C B7]
[01/01/09 01:28:36.784] send: [8b: 01 04 00 04 00 01 70 0B]
[01/01/09 01:28:36.788] 	recv: [7b: 01 04 02 14 AB F7 8F]
[01/01/09 01:28:36.804] send: [8b: 01 04 00 06 00 01 D1 CB]
[01/01/09 01:28:36.816] 	recv: [7b: 01 04 02 00 03 F9 31]
[01/01/09 01:28:36.823] send: [8b: 01 04 00 07 00 01 80 0B]
[01/01/09 01:28:36.831] 	recv: [7b: 01 04 02 03 1A 38 0B]
[01/01/09 01:28:36.834] send: [8b: 01 04 00 05 00 01 21 CB]
[01/01/09 01:28:36.846] 	recv: [7b: 01 04 02 0E 76 3C B6]
[01/01/09 01:28:36.855] send: [8b: 01 04 00 04 00 01 70 0B]
[01/01/09 01:28:36.860] 	recv: [7b: 01 04 02 14 AA 36 4F]
[01/01/09 01:28:36.875] send: [8b: 01 04 00 06 00 01 D1 CB]
[01/01/09 01:28:36.879] 	recv: [7b: 01 04 02 00 01 78 F0]
[01/01/09 01:28:36.893] send: [8b: 01 04 00 07 00 01 80 0B]
[01/01/09 01:28:36.905] 	recv: [7b: 01 04 02 03 1C B8 09]
[01/01/09 01:28:36.915] send: [8b: 01 04 00 05 00 01 21 CB]
[01/01/09 01:28:36.920] 	recv: [7b: 01 04 02 0E 76 3C B6]
[01/01/09 01:28:36.937] send: [8b: 01 04 00 04 00 01 70 0B]
[01/01/09 01:28:36.941] 	recv: [7b: 01 04 02 14 AA 36 4F]
[01/01/09 01:28:36.954] send: [8b: 01 04 00 06 00 01 D1 CB]
[01/01/09 01:28:36.966] 	recv: [7b: 01 04 02 00 02 38 F1]
[01/01/09 01:28:36.974] send: [8b: 01 04 00 07 00 01 80 0B]
[01/01/09 01:28:36.980] 	recv: [7b: 01 04 02 03 1A 38 0B]
[01/01/09 01:28:36.983] send: [8b: 01 04 00 05 00 01 21 CB]
[01/01/09 01:28:36.987] 	recv: [7b: 01 04 02 0E 76 3C B6]
[01/01/09 01:28:36.994] send: [8b: 01 04 00 04 00 01 70 0B]
[01/01/09 01:28:36.998] 	recv: [7b: 01 04 02 14 AB F7 8F]
[01/01/09 01:28:37.014] send: [8b: 01 04 00 06 00 01 D1 CB]
[01/01/09 01:28:37.025] 	recv: [7b: 01 04 02 00 01 78 F0]
[01/01/09 01:28:37.038] send: [8b: 01 04 00 07 00 01 80 0B]
[01/01/09 01:28:37.041] 	recv: [7b: 01 04 02 03 1B F9 CB]
[01/01/09 01:28:37.046] send: [8b: 01 04 00 05 00 01 21 CB]
[01/01/09 01:28:37.055] 	recv: [7b: 01 04 02 0E 75 7C B7]
[01/01/09 01:28:37.068] send: [8b: 01 04 00 04 00 01 70 0B]
[01/01/09 01:28:37.071] 	recv: [7b: 01 04 02 14 AB F7 8F]
[01/01/09 01:28:37.084] send: [8b: 01 04 00 06 00 01 D1 CB]
[01/01/09 01:28:37.088] 	recv: [7b: 01 04 02 00 03 F9 31]
[01/01/09 01:28:37.105] send: [8b: 01 04 00 07 00 01 80 0B]
[01/01/09 01:28:37.115] 	recv: [7b: 01 04 02 03 1C B8 09]
[01/01/09 01:28:37.125] send: [8b: 01 04 00 05 00 01 21 CB]
[01/01/09 01:28:37.130] 	recv: [7b: 01 04 02 0E 75 7C B7]
[01/01/09 01:28:37.146] send: [8b: 01 04 00 04 00 01 70 0B]
[01/01/09 01:28:37.150] 	recv: [7b: 01 04 02 14 AB F7 8F]
[01/01/09 01:28:37.166] send: [8b: 01 04 00 06 00 01 D1 CB]
[01/01/09 01:28:37.175] 	recv: [7b: 01 04 02 00 04 B8 F3]
[01/01/09 01:28:37.183] send: [8b: 01 04 00 07 00 01 80 0B]
[01/01/09 01:28:37.190] 	recv: [7b: 01 04 02 03 1C B8 09]
[01/01/09 01:28:37.191] send: [8b: 01 04 00 05 00 01 21 CB]
[01/01/09 01:28:37.195] 	recv: [7b: 01 04 02 0E 78 BD 72]
[01/01/09 01:28:37.206] send: [8b: 01 04 00 04 00 01 70 0B]
[01/01/09 01:28:37.211] 	recv: [7b: 01 04 02 14 AA 36 4F]
[01/01/09 01:28:37.223] send: [8b: 01 04 00 06 00 01 D1 CB]
[01/01/09 01:28:37.235] 	recv: [7b: 01 04 02 00 01 78 F0]
[01/01/09 01:28:37.243] send: [8b: 01 04 00 07 00 01 80 0B]
[01/01/09 01:28:37.250] 	recv: [7b: 01 04 02 03 1A 38 0B]
[01/01/09 01:28:37.252] send: [8b: 01 04 00 05 00 01 21 CB]
[01/01/09 01:28:37.256] 	recv: [7b: 01 04 02 0E 76 3C B6]
[01/01/09 01:28:37.264] send: [8b: 01 04 00 04 00 01 70 0B]
[01/01/09 01:28:37.268] 	recv: [7b: 01 04 02 14 AB F7 8F]
[01/01/09 01:28:37.284] send: [8b: 01 04 00 06 00 01 D1 CB]
[01/01/09 01:28:37.296] 	recv: [7b: 01 04 02 00 05 79 33]
[01/01/09 01:28:37.303] send: [8b: 01 04 00 07 00 01 80 0B]
[01/01/09 01:28:37.311] 	recv: [7b: 01 04 02 03 1C B8 09]
[01/01/09 01:28:37.312] send: [8b: 01 04 00 05 00 01 21 CB]
[01/01/09 01:28:37.316] 	recv: [7b: 01 04 02 0E 76 3C B6]
[01/01/09 01:28:37.325] send: [8b: 01 04 00 04 00 01 70 0B]
[01/01/09 01:28:37.329] 	recv: [7b: 01 04 02 14 AB F7 8F]
[01/01/09 01:28:37.345] send: [8b: 01 04 00 06 00 01 D1 CB]
[01/01/09 01:28:37.356] 	recv: [7b: 01 04 02 00 03 F9 31]
[01/01/09 01:28:37.364] send: [8b: 01 04 00 07 00 01 80 0B]
[01/01/09 01:28:37.370] 	recv: [7b: 01 04 02 03 1B F9 CB]
[01/01/09 01:28:37.372] send: [8b: 01 04 00 05 00 01 21 CB]
[01/01/09 01:28:37.377] 	recv: [7b: 01 04 02 0E 76 3C B6]
[01/01/09 01:28:37.385] send: [8b: 01 04 00 04 00 01 70 0B]
[01/01/09 01:28:37.389] 	recv: [7b: 01 04 02 14 AA 36 4F]
[01/01/09 01:28:37.403] send: [8b: 01 04 00 06 00 01 D1 CB]
[01/01/09 01:28:37.416] 	recv: [7b: 01 04 02 00 03 F9 31]
[01/01/09 01:28:37.425] send: [8b: 01 04 00 07 00 01 80 0B]
[01/01/09 01:28:37.430] 	recv: [7b: 01 04 02 03 1B F9 CB]
[01/01/09 01:28:37.431] send: [8b: 01 04 00 05 00 01 21 CB]
